date Sun Jan 12 10:00:00 2026
base hex  timestamps absolute
internal events logged
Begin Triggerblock Sun Jan 12 10:00:00 2026
   0.000000 Start of measurement
   0.010000 1  100             Tx   d 8 E8 03 01 00 00 00 00 00  ; Throttle 10%, Normal
   0.010000 1  101             Tx   d 8 10 27 00 00 01 00 00 00  ; Speed 100 km/h, Valid
   0.010000 1  102             Tx   d 8 14 14 00 00 00 00 00 00  ; Brake 20 bar, Released, Checksum OK
   0.100000 1  100             Tx   d 8 F4 01 01 00 00 00 00 00  ; Throttle 5%, Normal
   0.100000 1  101             Tx   d 8 10 27 00 00 01 00 00 00  ; Speed 100 km/h, Valid
   0.100000 1  102             Tx   d 8 0A 0A 00 00 00 00 00 00  ; Brake 10 bar, Released
   0.200000 1  100             Tx   d 8 DC 05 01 00 00 00 00 00  ; Throttle 15%, Normal
   0.200000 1  101             Tx   d 8 10 27 00 00 01 00 00 00  ; Speed 100 km/h, Valid
   0.200000 1  102             Tx   d 8 05 05 00 00 00 00 00 00  ; Brake 5 bar, Released
   0.300000 1  100             Tx   d 8 E8 03 01 00 00 00 00 00  ; Throttle 10%, Normal
   0.300000 1  101             Tx   d 8 10 27 00 00 01 00 00 00  ; Speed 100 km/h, Valid
   0.300000 1  102             Tx   d 8 00 00 00 00 00 00 00 00  ; Brake 0 bar, Released
   0.500000 1  100             Tx   d 8 D0 07 01 00 00 00 00 00  ; Throttle 20%, Normal
   0.500000 1  101             Tx   d 8 88 13 00 00 01 00 00 00  ; Speed 50 km/h, Valid (decel)
   0.500000 1  102             Tx   d 8 00 00 00 00 00 00 00 00  ; Brake 0 bar, Released
   0.700000 1  100             Tx   d 8 B8 0B 01 00 00 00 00 00  ; Throttle 30%, Normal
   0.700000 1  101             Tx   d 8 E8 03 00 00 01 00 00 00  ; Speed 10 km/h, Valid
   0.700000 1  102             Tx   d 8 00 00 00 00 00 00 00 00  ; Brake 0 bar, Released
   1.000000 1  100             Tx   d 8 10 27 01 00 00 00 00 00  ; Throttle 100%, Normal - FULL THROTTLE
   1.000000 1  101             Tx   d 8 E8 03 00 00 01 00 00 00  ; Speed 10 km/h, Valid
   1.000000 1  102             Tx   d 8 00 00 00 00 00 00 00 00  ; Brake 0 bar, Released
   1.200000 1  100             Tx   d 8 10 27 01 00 00 00 00 00  ; Throttle 100%, Normal
   1.200000 1  101             Tx   d 8 D0 07 00 00 01 00 00 00  ; Speed 20 km/h, Valid
   1.200000 1  102             Tx   d 8 00 00 00 00 00 00 00 00  ; Brake 0 bar, Released
   1.500000 1  100             Tx   d 8 10 27 01 00 00 00 00 00  ; Throttle 100%, Normal
   1.500000 1  101             Tx   d 8 88 13 00 00 01 00 00 00  ; Speed 50 km/h, Valid
   1.500000 1  102             Tx   d 8 00 00 00 00 00 00 00 00  ; Brake 0 bar, Released
   2.000000 1  100             Tx   d 8 10 27 01 00 00 00 00 00  ; Throttle 100%, Normal
   2.000000 1  101             Tx   d 8 A0 1F 00 00 01 00 00 00  ; Speed 80.96 km/h, Valid
   2.000000 1  102             Tx   d 8 00 00 00 00 00 00 00 00  ; Brake 0 bar, Released
   2.500000 1  100             Tx   d 8 10 27 01 00 00 00 00 00  ; Throttle 100%, Normal
   2.500000 1  101             Tx   d 8 30 2A 00 00 01 00 00 00  ; Speed 108.0 km/h, Valid - OVERSPEED!
   2.500000 1  102             Tx   d 8 00 00 00 00 00 00 00 00  ; Brake 0 bar, Released
   3.000000 1  100             Tx   d 8 10 27 01 00 00 00 00 00  ; Throttle 100%, Normal
   3.000000 1  101             Tx   d 8 C0 35 00 00 01 00 00 00  ; Speed 137.6 km/h, Valid - OVERSPEED!
   3.000000 1  102             Tx   d 8 00 00 00 00 00 00 00 00  ; Brake 0 bar, Released
   3.500000 1  100             Tx   d 8 F4 01 01 00 00 00 00 00  ; Throttle 5%, Normal - lifting off
   3.500000 1  101             Tx   d 8 D8 39 00 00 01 00 00 00  ; Speed 148.0 km/h, Valid - OVERSPEED!
   3.500000 1  102             Tx   d 8 50 50 02 00 00 00 00 00  ; Brake 80 bar, Emergency starting
   4.000000 1  100             Tx   d 8 00 00 01 00 00 00 00 00  ; Throttle 0%, Normal
   4.000000 1  101             Tx   d 8 20 3E 00 00 01 00 00 00  ; Speed 159.04 km/h, Valid - OVERSPEED PEAK!
   4.000000 1  102             Tx   d 8 D2 D2 02 00 00 00 00 00  ; Brake 210 bar, Emergency - HIGH PRESSURE!
   4.100000 1  100             Tx   d 8 00 00 01 00 00 00 00 00  ; Throttle 0%, Normal
   4.100000 1  101             Tx   d 8 B8 37 00 00 01 00 00 00  ; Speed 142.32 km/h - RAPID DECEL!
   4.100000 1  102             Tx   d 8 E6 E6 02 00 00 00 00 00  ; Brake 230 bar, Emergency
   4.200000 1  100             Tx   d 8 00 00 01 00 00 00 00 00  ; Throttle 0%, Normal
   4.200000 1  101             Tx   d 8 50 31 00 00 01 00 00 00  ; Speed 126.0 km/h - RAPID DECEL!
   4.200000 1  102             Tx   d 8 F0 F0 02 00 00 00 00 00  ; Brake 240 bar, Emergency
   4.300000 1  100             Tx   d 8 00 00 01 00 00 00 00 00  ; Throttle 0%, Normal
   4.300000 1  101             Tx   d 8 E8 2A 00 00 01 00 00 00  ; Speed 110.0 km/h - EMERGENCY STOP EVENT!
   4.300000 1  102             Tx   d 8 FA FF 02 00 00 00 00 00  ; Brake 250 bar, Emergency - INVALID CHECKSUM!
   4.500000 1  100             Tx   d 8 00 00 01 00 00 00 00 00  ; Throttle 0%, Normal
   4.500000 1  101             Tx   d 8 70 17 00 00 01 00 00 00  ; Speed 60.0 km/h
   4.500000 1  102             Tx   d 8 C8 C8 02 00 00 00 00 00  ; Brake 200 bar, Emergency
   5.000000 1  100             Tx   d 8 00 00 01 00 00 00 00 00  ; Throttle 0%, Normal
   5.000000 1  101             Tx   d 8 D0 07 00 00 01 00 00 00  ; Speed 20 km/h
   5.000000 1  102             Tx   d 8 64 64 01 00 00 00 00 00  ; Brake 100 bar, Applied
   5.500000 1  100             Tx   d 8 00 00 01 00 00 00 00 00  ; Throttle 0%, Normal
   5.500000 1  101             Tx   d 8 00 00 00 00 01 00 00 00  ; Speed 0 km/h - STOPPED
   5.500000 1  102             Tx   d 8 32 32 01 00 00 00 00 00  ; Brake 50 bar, Applied
   6.000000 1  100             Tx   d 8 00 00 01 00 00 00 00 00  ; Throttle 0%, Normal
   6.000000 1  101             Tx   d 8 00 00 00 00 01 00 00 00  ; Speed 0 km/h
   6.000000 1  102             Tx   d 8 14 14 00 00 00 00 00 00  ; Brake 20 bar, Released
   8.500000 1  100             Tx   d 8 F4 01 01 00 00 00 00 00  ; Throttle 5%, Normal - TIMEOUT GAP >2s!
   8.500000 1  101             Tx   d 8 00 00 00 00 01 00 00 00  ; Speed 0 km/h
   8.500000 1  102             Tx   d 8 0A 0A 00 00 00 00 00 00  ; Brake 10 bar, Released
   9.000000 1  100             Tx   d 8 E8 03 01 00 00 00 00 00  ; Throttle 10%, Normal
   9.000000 1  101             Tx   d 8 E8 03 00 00 01 00 00 00  ; Speed 10 km/h
   9.000000 1  102             Tx   d 8 00 00 00 00 00 00 00 00  ; Brake 0 bar, Released
   9.500000 1  100             Tx   d 8 DC 05 01 00 00 00 00 00  ; Throttle 15%, Normal
   9.500000 1  101             Tx   d 8 D0 07 00 00 01 00 00 00  ; Speed 20 km/h
   9.500000 1  102             Tx   d 8 00 00 00 00 00 00 00 00  ; Brake 0 bar, Released
  10.000000 1  100             Tx   d 8 B8 0B 01 00 00 00 00 00  ; Throttle 30%, Normal
  10.000000 1  101             Tx   d 8 88 13 00 00 01 00 00 00  ; Speed 50 km/h
  10.000000 1  102             Tx   d 8 00 00 00 00 00 00 00 00  ; Brake 0 bar, Released
End TriggerBlock

